T08AC 000:004.470   SEGGER J-Link V7.82 Log File
T08AC 000:004.582   DLL Compiled: Oct 13 2022 13:32:51
T08AC 000:004.590   Logging started @ 2023-01-06 11:02
T08AC 000:004.598 - 4.602ms
T08AC 000:004.610 JLINK_SetWarnOutHandler(...)
T08AC 000:004.621 - 0.014ms
T08AC 000:004.629 JLINK_OpenEx(...)
T08AC 000:006.940   Firmware: J-Link STLink V2 compiled Aug 12 2019 10:28:03
T08AC 000:007.810   Firmware: J-Link STLink V2 compiled Aug 12 2019 10:28:03
T08AC 000:015.076   Hardware: V1.00
T08AC 000:015.107   S/N: 775068029
T08AC 000:015.121   OEM: SEGGER
T08AC 000:015.131   Feature(s): None
T08AC 000:019.932   TELNET listener socket opened on port 19021
T08AC 000:020.066   WEBSRV WEBSRV_Init(): Starting webserver thread(s)
T08AC 000:020.246   WEBSRV Webserver running on local port 19080
T08AC 000:041.044 - 36.441ms returns "O.K."
T08AC 000:041.096 JLINK_GetEmuCaps()
T08AC 000:041.106 - 0.014ms returns 0x98EA5A33
T08AC 000:041.121 JLINK_TIF_GetAvailable(...)
T08AC 000:041.448 - 0.333ms
T08AC 000:041.464 JLINK_SetErrorOutHandler(...)
T08AC 000:041.471 - 0.010ms
T08AC 000:041.493 JLINK_ExecCommand("ProjectFile = "E:\Telink\git\UBIA\PowerProfiler\STM32F103\JLinkSettings.ini"", ...). 
T08AC 000:052.533   Ref file found at: D:\MCU\Keil\v5.36\ARM\Segger\JLinkDevices.ref
T08AC 000:052.625   REF file references invalid XML file: D:\MCU\SEGGER\JLink_v782\JLinkDevices.xml
T08AC 000:052.749 - 11.263ms returns 0x00
T08AC 000:055.947 JLINK_ExecCommand("Device = STM32F103C8", ...). 
T08AC 000:058.995   Device "STM32F103C8" selected.
T08AC 000:059.392 - 3.435ms returns 0x00
T08AC 000:059.410 JLINK_ExecCommand("DisableConnectionTimeout", ...). 
T08AC 000:059.421 - 0.005ms returns 0x01
T08AC 000:059.429 JLINK_GetHardwareVersion()
T08AC 000:059.437 - 0.011ms returns 10000
T08AC 000:059.449 JLINK_GetDLLVersion()
T08AC 000:059.456 - 0.010ms returns 78200
T08AC 000:059.464 JLINK_GetOEMString(...)
T08AC 000:059.473 JLINK_GetFirmwareString(...)
T08AC 000:059.480 - 0.010ms
T08AC 000:068.183 JLINK_GetDLLVersion()
T08AC 000:068.210 - 0.031ms returns 78200
T08AC 000:068.219 JLINK_GetCompileDateTime()
T08AC 000:068.226 - 0.010ms
T08AC 000:071.099 JLINK_GetFirmwareString(...)
T08AC 000:071.115 - 0.020ms
T08AC 000:074.071 JLINK_GetHardwareVersion()
T08AC 000:074.087 - 0.020ms returns 10000
T08AC 000:077.747 JLINK_GetSN()
T08AC 000:077.762 - 0.018ms returns 775068029
T08AC 000:080.535 JLINK_GetOEMString(...)
T08AC 000:083.704 JLINK_TIF_Select(JLINKARM_TIF_SWD)
T08AC 000:086.804 - 3.109ms returns 0x00
T08AC 000:086.820 JLINK_HasError()
T08AC 000:086.836 JLINK_SetSpeed(5000)
T08AC 000:087.720 - 0.911ms
T08AC 000:087.758 JLINK_GetId()
T08AC 000:092.482   InitTarget() start
T08AC 000:092.510    J-Link Script File: Executing InitTarget()
T08AC 000:119.936   InitTarget() end
T08AC 000:124.701   Found SW-DP with ID 0x1BA01477
T08AC 000:129.174   Old FW that does not support reading DPIDR via DAP jobs
T08AC 000:133.361   DPv0 detected
T08AC 000:139.265   CoreSight SoC-400 or earlier
T08AC 000:142.101   Scanning AP map to find all available APs
T08AC 000:146.514   AP[1]: Stopped AP scan as end of AP map has been reached
T08AC 000:149.545   AP[0]: AHB-AP (IDR: 0x14770011)
T08AC 000:152.468   Iterating through AP map to find AHB-AP to use
T08AC 000:157.127   AP[0]: Core found
T08AC 000:159.767   AP[0]: AHB-AP ROM base: 0xE00FF000
T08AC 000:163.802   CPUID register: 0x411FC231. Implementer code: 0x41 (ARM)
T08AC 000:171.459   Found Cortex-M3 r1p1, Little endian.
T08AC 000:172.993   -- Max. mem block: 0x00003620
T08AC 000:173.805   CPU_ReadMem(4 bytes @ 0xE000EDF0)
T08AC 000:174.960   CPU_ReadMem(4 bytes @ 0xE0002000)
T08AC 000:179.044   FPUnit: 6 code (BP) slots and 2 literal slots
T08AC 000:179.065   CPU_ReadMem(4 bytes @ 0xE000EDFC)
T08AC 000:179.747   CPU_WriteMem(4 bytes @ 0xE000EDFC)
T08AC 000:180.748   CPU_ReadMem(4 bytes @ 0xE0001000)
T08AC 000:181.665   CPU_WriteMem(4 bytes @ 0xE0001000)
T08AC 000:182.605   CPU_ReadMem(4 bytes @ 0xE000ED88)
T08AC 000:183.412   CPU_WriteMem(4 bytes @ 0xE000ED88)
T08AC 000:184.348   CPU_ReadMem(4 bytes @ 0xE000ED88)
T08AC 000:185.335   CPU_WriteMem(4 bytes @ 0xE000ED88)
T08AC 000:189.380   CoreSight components:
T08AC 000:192.297   ROMTbl[0] @ E00FF000
T08AC 000:192.319   CPU_ReadMem(64 bytes @ 0xE00FF000)
T08AC 000:193.333   CPU_ReadMem(32 bytes @ 0xE000EFE0)
T08AC 000:197.217   [0][0]: E000E000 CID B105E00D PID 001BB000 SCS
T08AC 000:197.240   CPU_ReadMem(32 bytes @ 0xE0001FE0)
T08AC 000:200.913   [0][1]: E0001000 CID B105E00D PID 001BB002 DWT
T08AC 000:200.943   CPU_ReadMem(32 bytes @ 0xE0002FE0)
T08AC 000:204.895   [0][2]: E0002000 CID B105E00D PID 000BB003 FPB
T08AC 000:204.917   CPU_ReadMem(32 bytes @ 0xE0000FE0)
T08AC 000:208.917   [0][3]: E0000000 CID B105E00D PID 001BB001 ITM
T08AC 000:208.939   CPU_ReadMem(32 bytes @ 0xE0040FE0)
T08AC 000:212.927   [0][4]: E0040000 CID B105900D PID 001BB923 TPIU-Lite
T08AC 000:213.454 - 125.706ms returns 0x1BA01477
T08AC 000:213.478 JLINK_GetDLLVersion()
T08AC 000:213.485 - 0.010ms returns 78200
T08AC 000:213.494 JLINK_CORE_GetFound()
T08AC 000:213.501 - 0.010ms returns 0x30000FF
T08AC 000:213.512 JLINK_GetDebugInfo(0x100 = JLINKARM_ROM_TABLE_ADDR_INDEX)
T08AC 000:213.525   Value=0xE00FF000
T08AC 000:213.535 - 0.026ms returns 0
T08AC 000:216.600 JLINK_GetDebugInfo(0x100 = JLINKARM_ROM_TABLE_ADDR_INDEX)
T08AC 000:216.618   Value=0xE00FF000
T08AC 000:216.628 - 0.030ms returns 0
T08AC 000:216.636 JLINK_GetDebugInfo(0x101 = JLINKARM_DEBUG_INFO_ETM_ADDR_INDEX)
T08AC 000:216.643   Value=0x00000000
T08AC 000:216.653 - 0.020ms returns 0
T08AC 000:216.665 JLINK_ReadMemEx(0xE0041FF0, 0x10 Bytes, Flags = 0x02000004)
T08AC 000:216.688   CPU_ReadMem(16 bytes @ 0xE0041FF0)
T08AC 000:217.237   Data:  00 00 00 00 00 00 00 00 00 00 00 00 00 00 00 00
T08AC 000:217.252 - 0.591ms returns 16 (0x10)
T08AC 000:217.262 JLINK_GetDebugInfo(0x102 = JLINKARM_DEBUG_INFO_MTB_ADDR_INDEX)
T08AC 000:217.270   Value=0x00000000
T08AC 000:217.279 - 0.020ms returns 0
T08AC 000:217.287 JLINK_GetDebugInfo(0x103 = JLINKARM_DEBUG_INFO_TPIU_ADDR_INDEX)
T08AC 000:217.294   Value=0xE0040000
T08AC 000:217.304 - 0.020ms returns 0
T08AC 000:217.312 JLINK_GetDebugInfo(0x104 = JLINKARM_DEBUG_INFO_ITM_ADDR_INDEX)
T08AC 000:217.319   Value=0xE0000000
T08AC 000:217.332 - 0.024ms returns 0
T08AC 000:217.340 JLINK_GetDebugInfo(0x105 = JLINKARM_DEBUG_INFO_DWT_ADDR_INDEX)
T08AC 000:217.347   Value=0xE0001000
T08AC 000:217.357 - 0.019ms returns 0
T08AC 000:217.364 JLINK_GetDebugInfo(0x106 = JLINKARM_DEBUG_INFO_FPB_ADDR_INDEX)
T08AC 000:217.372   Value=0xE0002000
T08AC 000:217.384 - 0.023ms returns 0
T08AC 000:217.393 JLINK_GetDebugInfo(0x107 = JLINKARM_DEBUG_INFO_NVIC_ADDR_INDEX)
T08AC 000:217.402   Value=0xE000E000
T08AC 000:217.414 - 0.025ms returns 0
T08AC 000:217.424 JLINK_GetDebugInfo(0x10C = JLINKARM_DEBUG_INFO_DBG_ADDR_INDEX)
T08AC 000:217.433   Value=0xE000EDF0
T08AC 000:217.445 - 0.025ms returns 0
T08AC 000:217.455 JLINK_GetDebugInfo(0x01 = Unknown)
T08AC 000:217.466   Value=0x00000000
T08AC 000:217.479 - 0.028ms returns 0
T08AC 000:217.488 JLINK_ReadMemU32(0xE000ED00, 0x1 Items)
T08AC 000:217.499   CPU_ReadMem(4 bytes @ 0xE000ED00)
T08AC 000:218.068   Data:  31 C2 1F 41
T08AC 000:218.082   Debug reg: CPUID
T08AC 000:218.092 - 0.608ms returns 1 (0x1)
T08AC 000:218.101 JLINK_GetDebugInfo(0x10F = JLINKARM_DEBUG_INFO_HAS_CORTEX_M_SECURITY_EXT_INDEX)
T08AC 000:218.109   Value=0x00000000
T08AC 000:218.118 - 0.020ms returns 0
T08AC 000:218.126 JLINK_HasError()
T08AC 000:218.134 JLINK_SetResetType(JLINKARM_CM3_RESET_TYPE_NORMAL)
T08AC 000:218.142 - 0.010ms returns JLINKARM_CM3_RESET_TYPE_NORMAL
T08AC 000:218.149 JLINK_Reset()
T08AC 000:218.167   CPU is running
T08AC 000:218.179   CPU_WriteMem(4 bytes @ 0xE000EDF0)
T08AC 000:219.022   CPU is running
T08AC 000:219.037   CPU_WriteMem(4 bytes @ 0xE000EDFC)
T08AC 000:222.990   Reset: Halt core after reset via DEMCR.VC_CORERESET.
T08AC 000:227.240   Reset: Reset device via AIRCR.SYSRESETREQ.
T08AC 000:227.261   CPU is running
T08AC 000:227.272   CPU_WriteMem(4 bytes @ 0xE000ED0C)
T08AC 000:281.443   CPU_ReadMem(4 bytes @ 0xE000EDF0)
T08AC 000:282.428   CPU_ReadMem(4 bytes @ 0xE000EDF0)
T08AC 000:283.408   CPU is running
T08AC 000:283.427   CPU_WriteMem(4 bytes @ 0xE000EDF0)
T08AC 000:284.314   CPU is running
T08AC 000:284.331   CPU_WriteMem(4 bytes @ 0xE000EDFC)
T08AC 000:291.094   CPU_ReadMem(4 bytes @ 0xE000EDF0)
T08AC 000:295.678   CPU_WriteMem(4 bytes @ 0xE0002000)
T08AC 000:296.446   CPU_ReadMem(4 bytes @ 0xE000EDFC)
T08AC 000:297.332   CPU_ReadMem(4 bytes @ 0xE0001000)
T08AC 000:298.230 - 80.094ms
T08AC 000:298.261 JLINK_Halt()
T08AC 000:298.271 - 0.014ms returns 0x00
T08AC 000:298.334 JLINK_ReadMemU32(0xE000EDF0, 0x1 Items)
T08AC 000:298.354   CPU_ReadMem(4 bytes @ 0xE000EDF0)
T08AC 000:299.172   Data:  03 00 03 00
T08AC 000:299.195   Debug reg: DHCSR
T08AC 000:299.208 - 0.878ms returns 1 (0x1)
T08AC 000:299.225 JLINK_WriteU32_64(0xE000EDF0, 0xA05F0003)
T08AC 000:299.237   Debug reg: DHCSR
T08AC 000:299.467   CPU_WriteMem(4 bytes @ 0xE000EDF0)
T08AC 000:300.176 - 0.958ms returns 0 (0x00000000)
T08AC 000:300.190 JLINK_WriteU32_64(0xE000EDFC, 0x01000000)
T08AC 000:300.198   Debug reg: DEMCR
T08AC 000:300.212   CPU_WriteMem(4 bytes @ 0xE000EDFC)
T08AC 000:301.052 - 0.877ms returns 0 (0x00000000)
T08AC 000:314.184 JLINK_GetHWStatus(...)
T08AC 000:314.587 - 0.411ms returns 0
T08AC 000:323.547 JLINK_GetNumBPUnits(Type = 0xFFFFFF00)
T08AC 000:323.577 - 0.040ms returns 0x06
T08AC 000:323.593 JLINK_GetNumBPUnits(Type = 0xF0)
T08AC 000:323.600 - 0.011ms returns 0x2000
T08AC 000:323.608 JLINK_GetNumWPUnits()
T08AC 000:323.616 - 0.011ms returns 4
T08AC 000:332.908 JLINK_GetSpeed()
T08AC 000:332.930 - 0.025ms returns 4000
T08AC 000:339.414 JLINK_ReadMemU32(0xE000E004, 0x1 Items)
T08AC 000:339.457   CPU_ReadMem(4 bytes @ 0xE000E004)
T08AC 000:340.041   Data:  01 00 00 00
T08AC 000:340.074 - 0.665ms returns 1 (0x1)
T08AC 000:340.090 JLINK_ReadMemU32(0xE000E004, 0x1 Items)
T08AC 000:340.110   CPU_ReadMem(4 bytes @ 0xE000E004)
T08AC 000:340.895   Data:  01 00 00 00
T08AC 000:340.909 - 0.822ms returns 1 (0x1)
T08AC 000:340.919 JLINK_WriteMemEx(0xE0001000, 0x0000001C Bytes, Flags = 0x02000004)
T08AC 000:340.927   Data:  01 00 00 00 00 00 00 00 00 00 00 00 00 00 00 00 ...
T08AC 000:340.944   CPU_WriteMem(28 bytes @ 0xE0001000)
T08AC 000:341.988 - 1.083ms returns 0x1C
T08AC 000:342.015 JLINK_Halt()
T08AC 000:342.024 - 0.014ms returns 0x00
T08AC 000:342.034 JLINK_IsHalted()
T08AC 000:342.043 - 0.013ms returns TRUE
T08AC 000:344.522 JLINK_WriteMem(0x20000000, 0x164 Bytes, ...)
T08AC 000:344.535   Data:  00 BE 0A E0 0D 78 2D 06 68 40 08 24 40 00 00 D3 ...
T08AC 000:344.738   CPU_WriteMem(356 bytes @ 0x20000000)
T08AC 000:347.482 - 2.973ms returns 0x164
T08AC 000:347.531 JLINK_HasError()
T08AC 000:347.544 JLINK_WriteReg(R0, 0x08000000)
T08AC 000:347.563 - 0.023ms returns 0
T08AC 000:347.573 JLINK_WriteReg(R1, 0x00B71B00)
T08AC 000:347.582 - 0.013ms returns 0
T08AC 000:347.592 JLINK_WriteReg(R2, 0x00000001)
T08AC 000:347.600 - 0.013ms returns 0
T08AC 000:347.610 JLINK_WriteReg(R3, 0x00000000)
T08AC 000:347.619 - 0.012ms returns 0
T08AC 000:347.628 JLINK_WriteReg(R4, 0x00000000)
T08AC 000:347.637 - 0.012ms returns 0
T08AC 000:347.646 JLINK_WriteReg(R5, 0x00000000)
T08AC 000:347.655 - 0.012ms returns 0
T08AC 000:347.664 JLINK_WriteReg(R6, 0x00000000)
T08AC 000:347.673 - 0.012ms returns 0
T08AC 000:347.682 JLINK_WriteReg(R7, 0x00000000)
T08AC 000:347.691 - 0.012ms returns 0
T08AC 000:347.700 JLINK_WriteReg(R8, 0x00000000)
T08AC 000:347.713 - 0.016ms returns 0
T08AC 000:347.722 JLINK_WriteReg(R9, 0x20000160)
T08AC 000:347.731 - 0.012ms returns 0
T08AC 000:347.740 JLINK_WriteReg(R10, 0x00000000)
T08AC 000:347.749 - 0.013ms returns 0
T08AC 000:347.763 JLINK_WriteReg(R11, 0x00000000)
T08AC 000:347.772 - 0.013ms returns 0
T08AC 000:347.781 JLINK_WriteReg(R12, 0x00000000)
T08AC 000:347.790 - 0.012ms returns 0
T08AC 000:347.799 JLINK_WriteReg(R13 (SP), 0x20000800)
T08AC 000:347.809 - 0.013ms returns 0
T08AC 000:347.818 JLINK_WriteReg(R14, 0x20000001)
T08AC 000:347.832 - 0.019ms returns 0
T08AC 000:347.843 JLINK_WriteReg(R15 (PC), 0x20000038)
T08AC 000:347.856 - 0.016ms returns 0
T08AC 000:347.864 JLINK_WriteReg(XPSR, 0x01000000)
T08AC 000:347.871 - 0.011ms returns 0
T08AC 000:347.879 JLINK_WriteReg(MSP, 0x20000800)
T08AC 000:347.886 - 0.010ms returns 0
T08AC 000:347.894 JLINK_WriteReg(PSP, 0x20000800)
T08AC 000:347.902 - 0.010ms returns 0
T08AC 000:347.909 JLINK_WriteReg(CFBP, 0x00000000)
T08AC 000:347.917 - 0.010ms returns 0
T08AC 000:347.930 JLINK_SetBPEx(Addr = 0x20000000, Type = 0xFFFFFFF2)
T08AC 000:347.944   CPU_ReadMem(2 bytes @ 0x20000000)
T08AC 000:348.402 - 0.479ms returns 0x00000001
T08AC 000:348.418 JLINK_Go()
T08AC 000:348.429   CPU_WriteMem(2 bytes @ 0x20000000)
T08AC 000:349.389   CPU_ReadMem(4 bytes @ 0xE0001000)
T08AC 000:350.242   CPU_WriteMem(4 bytes @ 0xE0002008)
T08AC 000:350.256   CPU_WriteMem(4 bytes @ 0xE000200C)
T08AC 000:350.266   CPU_WriteMem(4 bytes @ 0xE0002010)
T08AC 000:350.277   CPU_WriteMem(4 bytes @ 0xE0002014)
T08AC 000:350.287   CPU_WriteMem(4 bytes @ 0xE0002018)
T08AC 000:350.297   CPU_WriteMem(4 bytes @ 0xE000201C)
T08AC 000:352.332   CPU_WriteMem(4 bytes @ 0xE0001004)
T08AC 000:356.632 - 8.230ms
T08AC 000:356.662 JLINK_IsHalted()
T08AC 000:360.479   CPU_ReadMem(2 bytes @ 0x20000000)
T08AC 000:361.107 - 4.453ms returns TRUE
T08AC 000:361.125 JLINK_ReadReg(R15 (PC))
T08AC 000:361.136 - 0.014ms returns 0x20000000
T08AC 000:361.193 JLINK_ClrBPEx(BPHandle = 0x00000001)
T08AC 000:361.219 - 0.031ms returns 0x00
T08AC 000:361.232 JLINK_ReadReg(R0)
T08AC 000:361.243 - 0.016ms returns 0x00000000
T08AC 000:361.876 JLINK_HasError()
T08AC 000:361.893 JLINK_WriteReg(R0, 0x08000000)
T08AC 000:361.903 - 0.014ms returns 0
T08AC 000:361.911 JLINK_WriteReg(R1, 0x00B71B00)
T08AC 000:361.919 - 0.011ms returns 0
T08AC 000:361.927 JLINK_WriteReg(R2, 0x00000001)
T08AC 000:361.934 - 0.011ms returns 0
T08AC 000:361.942 JLINK_WriteReg(R3, 0x00000000)
T08AC 000:361.950 - 0.011ms returns 0
T08AC 000:361.958 JLINK_WriteReg(R4, 0x00000000)
T08AC 000:361.965 - 0.010ms returns 0
T08AC 000:361.973 JLINK_WriteReg(R5, 0x00000000)
T08AC 000:361.981 - 0.011ms returns 0
T08AC 000:361.989 JLINK_WriteReg(R6, 0x00000000)
T08AC 000:361.996 - 0.010ms returns 0
T08AC 000:362.004 JLINK_WriteReg(R7, 0x00000000)
T08AC 000:362.011 - 0.010ms returns 0
T08AC 000:362.019 JLINK_WriteReg(R8, 0x00000000)
T08AC 000:362.027 - 0.011ms returns 0
T08AC 000:362.035 JLINK_WriteReg(R9, 0x20000160)
T08AC 000:362.042 - 0.010ms returns 0
T08AC 000:362.050 JLINK_WriteReg(R10, 0x00000000)
T08AC 000:362.057 - 0.010ms returns 0
T08AC 000:362.065 JLINK_WriteReg(R11, 0x00000000)
T08AC 000:362.073 - 0.011ms returns 0
T08AC 000:362.081 JLINK_WriteReg(R12, 0x00000000)
T08AC 000:362.088 - 0.010ms returns 0
T08AC 000:362.096 JLINK_WriteReg(R13 (SP), 0x20000800)
T08AC 000:362.104 - 0.011ms returns 0
T08AC 000:362.112 JLINK_WriteReg(R14, 0x20000001)
T08AC 000:362.119 - 0.010ms returns 0
T08AC 000:362.127 JLINK_WriteReg(R15 (PC), 0x2000007C)
T08AC 000:362.135 - 0.011ms returns 0
T08AC 000:362.142 JLINK_WriteReg(XPSR, 0x01000000)
T08AC 000:362.150 - 0.011ms returns 0
T08AC 000:362.158 JLINK_WriteReg(MSP, 0x20000800)
T08AC 000:362.165 - 0.010ms returns 0
T08AC 000:362.173 JLINK_WriteReg(PSP, 0x20000800)
T08AC 000:362.181 - 0.010ms returns 0
T08AC 000:362.188 JLINK_WriteReg(CFBP, 0x00000000)
T08AC 000:362.196 - 0.010ms returns 0
T08AC 000:362.204 JLINK_SetBPEx(Addr = 0x20000000, Type = 0xFFFFFFF2)
T08AC 000:362.212 - 0.012ms returns 0x00000002
T08AC 000:362.220 JLINK_Go()
T08AC 000:362.236   CPU_ReadMem(4 bytes @ 0xE0001000)
T08AC 000:366.580 - 4.373ms
T08AC 000:366.602 JLINK_IsHalted()
T08AC 000:367.360 - 0.765ms returns FALSE
T08AC 000:367.375 JLINK_HasError()
T08AC 000:379.801 JLINK_IsHalted()
T08AC 000:380.438 - 0.644ms returns FALSE
T08AC 000:380.452 JLINK_HasError()
T08AC 000:382.800 JLINK_IsHalted()
T08AC 000:383.442 - 0.653ms returns FALSE
T08AC 000:383.461 JLINK_HasError()
T08AC 000:384.781 JLINK_IsHalted()
T08AC 000:385.516 - 0.743ms returns FALSE
T08AC 000:385.531 JLINK_HasError()
T08AC 000:386.835 JLINK_IsHalted()
T08AC 000:387.517 - 0.688ms returns FALSE
T08AC 000:387.530 JLINK_HasError()
T08AC 000:388.988 JLINK_IsHalted()
T08AC 000:392.536   CPU_ReadMem(2 bytes @ 0x20000000)
T08AC 000:393.055 - 4.075ms returns TRUE
T08AC 000:393.070 JLINK_ReadReg(R15 (PC))
T08AC 000:393.080 - 0.014ms returns 0x20000000
T08AC 000:393.089 JLINK_ClrBPEx(BPHandle = 0x00000002)
T08AC 000:393.106 - 0.020ms returns 0x00
T08AC 000:393.115 JLINK_ReadReg(R0)
T08AC 000:393.122 - 0.011ms returns 0x00000000
T08AC 000:444.583 JLINK_HasError()
T08AC 000:444.619 JLINK_WriteReg(R0, 0x00000001)
T08AC 000:444.632 - 0.016ms returns 0
T08AC 000:444.640 JLINK_WriteReg(R1, 0x00B71B00)
T08AC 000:444.649 - 0.011ms returns 0
T08AC 000:444.657 JLINK_WriteReg(R2, 0x00000001)
T08AC 000:444.664 - 0.011ms returns 0
T08AC 000:444.672 JLINK_WriteReg(R3, 0x00000000)
T08AC 000:444.680 - 0.010ms returns 0
T08AC 000:444.688 JLINK_WriteReg(R4, 0x00000000)
T08AC 000:444.695 - 0.011ms returns 0
T08AC 000:444.703 JLINK_WriteReg(R5, 0x00000000)
T08AC 000:444.711 - 0.011ms returns 0
T08AC 000:444.719 JLINK_WriteReg(R6, 0x00000000)
T08AC 000:444.726 - 0.010ms returns 0
T08AC 000:444.734 JLINK_WriteReg(R7, 0x00000000)
T08AC 000:444.741 - 0.010ms returns 0
T08AC 000:444.749 JLINK_WriteReg(R8, 0x00000000)
T08AC 000:444.757 - 0.011ms returns 0
T08AC 000:444.765 JLINK_WriteReg(R9, 0x20000160)
T08AC 000:444.772 - 0.010ms returns 0
T08AC 000:444.780 JLINK_WriteReg(R10, 0x00000000)
T08AC 000:444.787 - 0.010ms returns 0
T08AC 000:444.795 JLINK_WriteReg(R11, 0x00000000)
T08AC 000:444.804 - 0.013ms returns 0
T08AC 000:444.814 JLINK_WriteReg(R12, 0x00000000)
T08AC 000:444.823 - 0.013ms returns 0
T08AC 000:444.833 JLINK_WriteReg(R13 (SP), 0x20000800)
T08AC 000:444.843 - 0.014ms returns 0
T08AC 000:444.853 JLINK_WriteReg(R14, 0x20000001)
T08AC 000:444.862 - 0.013ms returns 0
T08AC 000:444.872 JLINK_WriteReg(R15 (PC), 0x2000006A)
T08AC 000:444.881 - 0.013ms returns 0
T08AC 000:444.891 JLINK_WriteReg(XPSR, 0x01000000)
T08AC 000:444.901 - 0.013ms returns 0
T08AC 000:444.910 JLINK_WriteReg(MSP, 0x20000800)
T08AC 000:444.920 - 0.013ms returns 0
T08AC 000:444.930 JLINK_WriteReg(PSP, 0x20000800)
T08AC 000:444.939 - 0.013ms returns 0
T08AC 000:444.949 JLINK_WriteReg(CFBP, 0x00000000)
T08AC 000:444.959 - 0.014ms returns 0
T08AC 000:444.968 JLINK_SetBPEx(Addr = 0x20000000, Type = 0xFFFFFFF2)
T08AC 000:444.976 - 0.012ms returns 0x00000003
T08AC 000:444.985 JLINK_Go()
T08AC 000:445.004   CPU_ReadMem(4 bytes @ 0xE0001000)
T08AC 000:449.308 - 4.335ms
T08AC 000:449.327 JLINK_IsHalted()
T08AC 000:453.112   CPU_ReadMem(2 bytes @ 0x20000000)
T08AC 000:453.705 - 4.386ms returns TRUE
T08AC 000:453.720 JLINK_ReadReg(R15 (PC))
T08AC 000:453.730 - 0.013ms returns 0x20000000
T08AC 000:453.739 JLINK_ClrBPEx(BPHandle = 0x00000003)
T08AC 000:453.747 - 0.011ms returns 0x00
T08AC 000:453.755 JLINK_ReadReg(R0)
T08AC 000:453.762 - 0.011ms returns 0x00000000
T08AC 000:459.337 JLINK_WriteMem(0x20000000, 0x164 Bytes, ...)
T08AC 000:459.353   Data:  00 BE 0A E0 0D 78 2D 06 68 40 08 24 40 00 00 D3 ...
T08AC 000:459.373   CPU_WriteMem(356 bytes @ 0x20000000)
T08AC 000:461.952 - 2.628ms returns 0x164
T08AC 000:462.033 JLINK_HasError()
T08AC 000:462.047 JLINK_WriteReg(R0, 0x08000000)
T08AC 000:462.057 - 0.014ms returns 0
T08AC 000:462.066 JLINK_WriteReg(R1, 0x00B71B00)
T08AC 000:462.074 - 0.011ms returns 0
T08AC 000:462.082 JLINK_WriteReg(R2, 0x00000002)
T08AC 000:462.090 - 0.011ms returns 0
T08AC 000:462.098 JLINK_WriteReg(R3, 0x00000000)
T08AC 000:462.105 - 0.011ms returns 0
T08AC 000:462.113 JLINK_WriteReg(R4, 0x00000000)
T08AC 000:462.121 - 0.011ms returns 0
T08AC 000:462.129 JLINK_WriteReg(R5, 0x00000000)
T08AC 000:462.136 - 0.011ms returns 0
T08AC 000:462.144 JLINK_WriteReg(R6, 0x00000000)
T08AC 000:462.152 - 0.010ms returns 0
T08AC 000:462.159 JLINK_WriteReg(R7, 0x00000000)
T08AC 000:462.167 - 0.011ms returns 0
T08AC 000:462.175 JLINK_WriteReg(R8, 0x00000000)
T08AC 000:462.191 - 0.019ms returns 0
T08AC 000:462.199 JLINK_WriteReg(R9, 0x20000160)
T08AC 000:462.207 - 0.011ms returns 0
T08AC 000:462.215 JLINK_WriteReg(R10, 0x00000000)
T08AC 000:462.222 - 0.011ms returns 0
T08AC 000:462.230 JLINK_WriteReg(R11, 0x00000000)
T08AC 000:462.237 - 0.010ms returns 0
T08AC 000:462.245 JLINK_WriteReg(R12, 0x00000000)
T08AC 000:462.253 - 0.011ms returns 0
T08AC 000:462.261 JLINK_WriteReg(R13 (SP), 0x20000800)
T08AC 000:462.269 - 0.011ms returns 0
T08AC 000:462.277 JLINK_WriteReg(R14, 0x20000001)
T08AC 000:462.285 - 0.011ms returns 0
T08AC 000:462.293 JLINK_WriteReg(R15 (PC), 0x20000038)
T08AC 000:462.300 - 0.011ms returns 0
T08AC 000:462.308 JLINK_WriteReg(XPSR, 0x01000000)
T08AC 000:462.316 - 0.011ms returns 0
T08AC 000:462.324 JLINK_WriteReg(MSP, 0x20000800)
T08AC 000:462.331 - 0.011ms returns 0
T08AC 000:462.339 JLINK_WriteReg(PSP, 0x20000800)
T08AC 000:462.347 - 0.011ms returns 0
T08AC 000:462.355 JLINK_WriteReg(CFBP, 0x00000000)
T08AC 000:462.362 - 0.011ms returns 0
T08AC 000:462.371 JLINK_SetBPEx(Addr = 0x20000000, Type = 0xFFFFFFF2)
T08AC 000:462.383   CPU_ReadMem(2 bytes @ 0x20000000)
T08AC 000:462.861 - 0.497ms returns 0x00000004
T08AC 000:462.875 JLINK_Go()
T08AC 000:462.885   CPU_WriteMem(2 bytes @ 0x20000000)
T08AC 000:463.856   CPU_ReadMem(4 bytes @ 0xE0001000)
T08AC 000:468.309 - 5.459ms
T08AC 000:468.342 JLINK_IsHalted()
T08AC 000:472.129   CPU_ReadMem(2 bytes @ 0x20000000)
T08AC 000:472.706 - 4.371ms returns TRUE
T08AC 000:472.721 JLINK_ReadReg(R15 (PC))
T08AC 000:472.732 - 0.014ms returns 0x20000000
T08AC 000:472.740 JLINK_ClrBPEx(BPHandle = 0x00000004)
T08AC 000:472.749 - 0.011ms returns 0x00
T08AC 000:472.757 JLINK_ReadReg(R0)
T08AC 000:472.765 - 0.011ms returns 0x00000000
T08AC 000:473.101 JLINK_WriteMem(0x20000164, 0x29C Bytes, ...)
T08AC 000:473.116   Data:  88 0A 00 20 4D 11 00 08 4D 07 00 08 4F 07 00 08 ...
T08AC 000:473.136   CPU_WriteMem(668 bytes @ 0x20000164)
T08AC 000:477.492 - 4.407ms returns 0x29C
T08AC 000:477.518 JLINK_WriteMem(0x20000400, 0x164 Bytes, ...)
T08AC 000:477.528   Data:  38 B5 4F F4 A0 60 01 F0 FF FF 14 20 8D F8 00 00 ...
T08AC 000:477.550   CPU_WriteMem(356 bytes @ 0x20000400)
T08AC 000:480.353 - 2.848ms returns 0x164
T08AC 000:480.375 JLINK_HasError()
T08AC 000:480.386 JLINK_WriteReg(R0, 0x08000000)
T08AC 000:480.399 - 0.017ms returns 0
T08AC 000:480.409 JLINK_WriteReg(R1, 0x00000400)
T08AC 000:480.419 - 0.013ms returns 0
T08AC 000:480.429 JLINK_WriteReg(R2, 0x20000164)
T08AC 000:480.438 - 0.013ms returns 0
T08AC 000:480.448 JLINK_WriteReg(R3, 0x00000000)
T08AC 000:480.457 - 0.013ms returns 0
T08AC 000:480.467 JLINK_WriteReg(R4, 0x00000000)
T08AC 000:480.477 - 0.013ms returns 0
T08AC 000:480.486 JLINK_WriteReg(R5, 0x00000000)
T08AC 000:480.495 - 0.013ms returns 0
T08AC 000:480.505 JLINK_WriteReg(R6, 0x00000000)
T08AC 000:480.514 - 0.013ms returns 0
T08AC 000:480.524 JLINK_WriteReg(R7, 0x00000000)
T08AC 000:480.533 - 0.013ms returns 0
T08AC 000:480.543 JLINK_WriteReg(R8, 0x00000000)
T08AC 000:480.552 - 0.013ms returns 0
T08AC 000:480.562 JLINK_WriteReg(R9, 0x20000160)
T08AC 000:480.571 - 0.013ms returns 0
T08AC 000:480.581 JLINK_WriteReg(R10, 0x00000000)
T08AC 000:480.595 - 0.018ms returns 0
T08AC 000:480.605 JLINK_WriteReg(R11, 0x00000000)
T08AC 000:480.615 - 0.013ms returns 0
T08AC 000:480.624 JLINK_WriteReg(R12, 0x00000000)
T08AC 000:480.634 - 0.013ms returns 0
T08AC 000:480.643 JLINK_WriteReg(R13 (SP), 0x20000800)
T08AC 000:480.653 - 0.014ms returns 0
T08AC 000:480.663 JLINK_WriteReg(R14, 0x20000001)
T08AC 000:480.673 - 0.013ms returns 0
T08AC 000:480.682 JLINK_WriteReg(R15 (PC), 0x200000F4)
T08AC 000:480.692 - 0.013ms returns 0
T08AC 000:480.702 JLINK_WriteReg(XPSR, 0x01000000)
T08AC 000:480.712 - 0.014ms returns 0
T08AC 000:480.723 JLINK_WriteReg(MSP, 0x20000800)
T08AC 000:480.732 - 0.014ms returns 0
T08AC 000:480.743 JLINK_WriteReg(PSP, 0x20000800)
T08AC 000:480.753 - 0.014ms returns 0
T08AC 000:480.763 JLINK_WriteReg(CFBP, 0x00000000)
T08AC 000:480.774 - 0.017ms returns 0
T08AC 000:480.785 JLINK_SetBPEx(Addr = 0x20000000, Type = 0xFFFFFFF2)
T08AC 000:480.793 - 0.011ms returns 0x00000005
T08AC 000:480.801 JLINK_Go()
T08AC 000:480.816   CPU_ReadMem(4 bytes @ 0xE0001000)
T08AC 000:484.952 - 4.163ms
T08AC 000:484.971 JLINK_IsHalted()
T08AC 000:485.763 - 0.799ms returns FALSE
T08AC 000:485.776 JLINK_HasError()
T08AC 000:490.522 JLINK_IsHalted()
T08AC 000:491.071 - 0.558ms returns FALSE
T08AC 000:491.088 JLINK_HasError()
T08AC 000:492.468 JLINK_IsHalted()
T08AC 000:493.140 - 0.680ms returns FALSE
T08AC 000:493.154 JLINK_HasError()
T08AC 000:494.470 JLINK_IsHalted()
T08AC 000:494.982 - 0.520ms returns FALSE
T08AC 000:494.996 JLINK_HasError()
T08AC 000:496.468 JLINK_IsHalted()
T08AC 000:497.099 - 0.651ms returns FALSE
T08AC 000:497.130 JLINK_HasError()
T08AC 000:498.473 JLINK_IsHalted()
T08AC 000:499.146 - 0.689ms returns FALSE
T08AC 000:499.171 JLINK_HasError()
T08AC 000:500.463 JLINK_IsHalted()
T08AC 000:500.957 - 0.507ms returns FALSE
T08AC 000:500.978 JLINK_HasError()
T08AC 000:503.106 JLINK_IsHalted()
T08AC 000:503.664 - 0.564ms returns FALSE
T08AC 000:503.678 JLINK_HasError()
T08AC 000:505.150 JLINK_IsHalted()
T08AC 000:505.716 - 0.576ms returns FALSE
T08AC 000:505.730 JLINK_HasError()
T08AC 000:508.150 JLINK_IsHalted()
T08AC 000:508.685 - 0.548ms returns FALSE
T08AC 000:508.706 JLINK_HasError()
T08AC 000:510.254 JLINK_IsHalted()
T08AC 000:510.718 - 0.477ms returns FALSE
T08AC 000:510.739 JLINK_HasError()
T08AC 000:512.264 JLINK_IsHalted()
T08AC 000:512.801 - 0.544ms returns FALSE
T08AC 000:512.819 JLINK_HasError()
T08AC 000:514.148 JLINK_IsHalted()
T08AC 000:514.689 - 0.548ms returns FALSE
T08AC 000:514.702 JLINK_HasError()
T08AC 000:516.261 JLINK_IsHalted()
T08AC 000:519.829   CPU_ReadMem(2 bytes @ 0x20000000)
T08AC 000:520.522 - 4.269ms returns TRUE
T08AC 000:520.537 JLINK_ReadReg(R15 (PC))
T08AC 000:520.547 - 0.014ms returns 0x20000000
T08AC 000:520.556 JLINK_ClrBPEx(BPHandle = 0x00000005)
T08AC 000:520.564 - 0.011ms returns 0x00
T08AC 000:520.572 JLINK_ReadReg(R0)
T08AC 000:520.580 - 0.011ms returns 0x00000000
T08AC 000:521.168 JLINK_WriteMem(0x20000164, 0x29C Bytes, ...)
T08AC 000:521.187   Data:  02 F0 14 FE 64 1E 48 20 A8 40 40 1E AD F8 00 00 ...
T08AC 000:521.206   CPU_WriteMem(668 bytes @ 0x20000164)
T08AC 000:525.448 - 4.298ms returns 0x29C
T08AC 000:525.475 JLINK_WriteMem(0x20000400, 0x164 Bytes, ...)
T08AC 000:525.484   Data:  8B F8 00 10 0B 21 28 48 FF F7 51 FE 84 F8 00 90 ...
T08AC 000:525.505   CPU_WriteMem(356 bytes @ 0x20000400)
T08AC 000:528.244 - 2.783ms returns 0x164
T08AC 000:528.268 JLINK_HasError()
T08AC 000:528.280 JLINK_WriteReg(R0, 0x08000400)
T08AC 000:528.293 - 0.018ms returns 0
T08AC 000:528.304 JLINK_WriteReg(R1, 0x00000400)
T08AC 000:528.313 - 0.014ms returns 0
T08AC 000:528.323 JLINK_WriteReg(R2, 0x20000164)
T08AC 000:528.333 - 0.013ms returns 0
T08AC 000:528.343 JLINK_WriteReg(R3, 0x00000000)
T08AC 000:528.352 - 0.013ms returns 0
T08AC 000:528.362 JLINK_WriteReg(R4, 0x00000000)
T08AC 000:528.371 - 0.013ms returns 0
T08AC 000:528.381 JLINK_WriteReg(R5, 0x00000000)
T08AC 000:528.391 - 0.013ms returns 0
T08AC 000:528.400 JLINK_WriteReg(R6, 0x00000000)
T08AC 000:528.410 - 0.013ms returns 0
T08AC 000:528.420 JLINK_WriteReg(R7, 0x00000000)
T08AC 000:528.429 - 0.013ms returns 0
T08AC 000:528.439 JLINK_WriteReg(R8, 0x00000000)
T08AC 000:528.448 - 0.013ms returns 0
T08AC 000:528.458 JLINK_WriteReg(R9, 0x20000160)
T08AC 000:528.467 - 0.013ms returns 0
T08AC 000:528.477 JLINK_WriteReg(R10, 0x00000000)
T08AC 000:528.486 - 0.013ms returns 0
T08AC 000:528.496 JLINK_WriteReg(R11, 0x00000000)
T08AC 000:528.509 - 0.018ms returns 0
T08AC 000:528.520 JLINK_WriteReg(R12, 0x00000000)
T08AC 000:528.529 - 0.013ms returns 0
T08AC 000:528.539 JLINK_WriteReg(R13 (SP), 0x20000800)
T08AC 000:528.549 - 0.014ms returns 0
T08AC 000:528.559 JLINK_WriteReg(R14, 0x20000001)
T08AC 000:528.569 - 0.013ms returns 0
T08AC 000:528.579 JLINK_WriteReg(R15 (PC), 0x200000F4)
T08AC 000:528.594 - 0.022ms returns 0
T08AC 000:528.608 JLINK_WriteReg(XPSR, 0x01000000)
T08AC 000:528.618 - 0.014ms returns 0
T08AC 000:528.626 JLINK_WriteReg(MSP, 0x20000800)
T08AC 000:528.634 - 0.010ms returns 0
T08AC 000:528.642 JLINK_WriteReg(PSP, 0x20000800)
T08AC 000:528.649 - 0.010ms returns 0
T08AC 000:528.657 JLINK_WriteReg(CFBP, 0x00000000)
T08AC 000:528.665 - 0.011ms returns 0
T08AC 000:528.673 JLINK_SetBPEx(Addr = 0x20000000, Type = 0xFFFFFFF2)
T08AC 000:528.681 - 0.012ms returns 0x00000006
T08AC 000:528.689 JLINK_Go()
T08AC 000:528.705   CPU_ReadMem(4 bytes @ 0xE0001000)
T08AC 000:532.761 - 4.084ms
T08AC 000:532.780 JLINK_IsHalted()
T08AC 000:533.599 - 0.833ms returns FALSE
T08AC 000:533.622 JLINK_HasError()
T08AC 000:535.661 JLINK_IsHalted()
T08AC 000:536.195 - 0.540ms returns FALSE
T08AC 000:536.208 JLINK_HasError()
T08AC 000:537.560 JLINK_IsHalted()
T08AC 000:538.089 - 0.547ms returns FALSE
T08AC 000:538.116 JLINK_HasError()
T08AC 000:539.517 JLINK_IsHalted()
T08AC 000:540.017 - 0.516ms returns FALSE
T08AC 000:540.043 JLINK_HasError()
T08AC 000:541.546 JLINK_IsHalted()
T08AC 000:542.104 - 0.573ms returns FALSE
T08AC 000:542.128 JLINK_HasError()
T08AC 000:543.673 JLINK_IsHalted()
T08AC 000:544.186 - 0.520ms returns FALSE
T08AC 000:544.200 JLINK_HasError()
T08AC 000:545.545 JLINK_IsHalted()
T08AC 000:546.070 - 0.541ms returns FALSE
T08AC 000:546.095 JLINK_HasError()
T08AC 000:547.668 JLINK_IsHalted()
T08AC 000:548.150 - 0.497ms returns FALSE
T08AC 000:548.175 JLINK_HasError()
T08AC 000:549.670 JLINK_IsHalted()
T08AC 000:550.149 - 0.496ms returns FALSE
T08AC 000:550.176 JLINK_HasError()
T08AC 000:551.537 JLINK_IsHalted()
T08AC 000:552.019 - 0.500ms returns FALSE
T08AC 000:552.045 JLINK_HasError()
T08AC 000:553.529 JLINK_IsHalted()
T08AC 000:554.044 - 0.531ms returns FALSE
T08AC 000:554.069 JLINK_HasError()
T08AC 000:555.654 JLINK_IsHalted()
T08AC 000:556.180 - 0.539ms returns FALSE
T08AC 000:556.201 JLINK_HasError()
T08AC 000:557.516 JLINK_IsHalted()
T08AC 000:558.189 - 0.686ms returns FALSE
T08AC 000:558.209 JLINK_HasError()
T08AC 000:559.653 JLINK_IsHalted()
T08AC 000:560.200 - 0.561ms returns FALSE
T08AC 000:560.221 JLINK_HasError()
T08AC 000:561.649 JLINK_IsHalted()
T08AC 000:562.147 - 0.510ms returns FALSE
T08AC 000:562.167 JLINK_HasError()
T08AC 000:563.524 JLINK_IsHalted()
T08AC 000:567.145   CPU_ReadMem(2 bytes @ 0x20000000)
T08AC 000:567.592 - 4.085ms returns TRUE
T08AC 000:567.620 JLINK_ReadReg(R15 (PC))
T08AC 000:567.634 - 0.019ms returns 0x20000000
T08AC 000:567.645 JLINK_ClrBPEx(BPHandle = 0x00000006)
T08AC 000:567.656 - 0.015ms returns 0x00
T08AC 000:567.666 JLINK_ReadReg(R0)
T08AC 000:567.676 - 0.014ms returns 0x00000000
T08AC 000:568.259 JLINK_WriteMem(0x20000164, 0x29C Bytes, ...)
T08AC 000:568.275   Data:  69 88 38 88 01 40 89 04 02 D5 4D F6 FF 71 31 60 ...
T08AC 000:568.296   CPU_WriteMem(668 bytes @ 0x20000164)
T08AC 000:572.500 - 4.260ms returns 0x29C
T08AC 000:572.530 JLINK_WriteMem(0x20000400, 0x164 Bytes, ...)
T08AC 000:572.540   Data:  09 4A 30 32 02 EB C1 01 00 F0 C0 BC 09 B9 01 28 ...
T08AC 000:572.565   CPU_WriteMem(356 bytes @ 0x20000400)
T08AC 000:575.136 - 2.617ms returns 0x164
T08AC 000:575.155 JLINK_HasError()
T08AC 000:575.165 JLINK_WriteReg(R0, 0x08000800)
T08AC 000:575.176 - 0.014ms returns 0
T08AC 000:575.184 JLINK_WriteReg(R1, 0x00000400)
T08AC 000:575.192 - 0.011ms returns 0
T08AC 000:575.200 JLINK_WriteReg(R2, 0x20000164)
T08AC 000:575.208 - 0.011ms returns 0
T08AC 000:575.216 JLINK_WriteReg(R3, 0x00000000)
T08AC 000:575.223 - 0.010ms returns 0
T08AC 000:575.231 JLINK_WriteReg(R4, 0x00000000)
T08AC 000:575.239 - 0.011ms returns 0
T08AC 000:575.247 JLINK_WriteReg(R5, 0x00000000)
T08AC 000:575.254 - 0.011ms returns 0
T08AC 000:575.263 JLINK_WriteReg(R6, 0x00000000)
T08AC 000:575.270 - 0.010ms returns 0
T08AC 000:575.278 JLINK_WriteReg(R7, 0x00000000)
T08AC 000:575.286 - 0.011ms returns 0
T08AC 000:575.294 JLINK_WriteReg(R8, 0x00000000)
T08AC 000:575.301 - 0.075ms returns 0
T08AC 000:575.378 JLINK_WriteReg(R9, 0x20000160)
T08AC 000:575.387 - 0.012ms returns 0
T08AC 000:575.395 JLINK_WriteReg(R10, 0x00000000)
T08AC 000:575.402 - 0.011ms returns 0
T08AC 000:575.410 JLINK_WriteReg(R11, 0x00000000)
T08AC 000:575.418 - 0.011ms returns 0
T08AC 000:575.426 JLINK_WriteReg(R12, 0x00000000)
T08AC 000:575.434 - 0.011ms returns 0
T08AC 000:575.441 JLINK_WriteReg(R13 (SP), 0x20000800)
T08AC 000:575.450 - 0.011ms returns 0
T08AC 000:575.458 JLINK_WriteReg(R14, 0x20000001)
T08AC 000:575.465 - 0.011ms returns 0
T08AC 000:575.473 JLINK_WriteReg(R15 (PC), 0x200000F4)
T08AC 000:575.481 - 0.011ms returns 0
T08AC 000:575.489 JLINK_WriteReg(XPSR, 0x01000000)
T08AC 000:575.497 - 0.011ms returns 0
T08AC 000:575.505 JLINK_WriteReg(MSP, 0x20000800)
T08AC 000:575.512 - 0.011ms returns 0
T08AC 000:575.520 JLINK_WriteReg(PSP, 0x20000800)
T08AC 000:575.532 - 0.015ms returns 0
T08AC 000:575.540 JLINK_WriteReg(CFBP, 0x00000000)
T08AC 000:575.548 - 0.011ms returns 0
T08AC 000:575.556 JLINK_SetBPEx(Addr = 0x20000000, Type = 0xFFFFFFF2)
T08AC 000:575.564 - 0.012ms returns 0x00000007
T08AC 000:575.573 JLINK_Go()
T08AC 000:575.589   CPU_ReadMem(4 bytes @ 0xE0001000)
T08AC 000:579.563 - 4.004ms
T08AC 000:579.584 JLINK_IsHalted()
T08AC 000:580.431 - 0.861ms returns FALSE
T08AC 000:580.453 JLINK_HasError()
T08AC 000:581.560 JLINK_IsHalted()
T08AC 000:582.065 - 0.512ms returns FALSE
T08AC 000:582.078 JLINK_HasError()
T08AC 000:583.530 JLINK_IsHalted()
T08AC 000:584.056 - 0.543ms returns FALSE
T08AC 000:584.084 JLINK_HasError()
T08AC 000:585.659 JLINK_IsHalted()
T08AC 000:586.140 - 0.488ms returns FALSE
T08AC 000:586.154 JLINK_HasError()
T08AC 000:587.660 JLINK_IsHalted()
T08AC 000:588.220 - 0.572ms returns FALSE
T08AC 000:588.245 JLINK_HasError()
T08AC 000:589.552 JLINK_IsHalted()
T08AC 000:590.060 - 0.523ms returns FALSE
T08AC 000:590.085 JLINK_HasError()
T08AC 000:591.669 JLINK_IsHalted()
T08AC 000:592.223 - 0.570ms returns FALSE
T08AC 000:592.249 JLINK_HasError()
T08AC 000:593.670 JLINK_IsHalted()
T08AC 000:594.210 - 0.555ms returns FALSE
T08AC 000:594.235 JLINK_HasError()
T08AC 000:595.671 JLINK_IsHalted()
T08AC 000:596.204 - 0.548ms returns FALSE
T08AC 000:596.229 JLINK_HasError()
T08AC 000:597.552 JLINK_IsHalted()
T08AC 000:598.117 - 0.580ms returns FALSE
T08AC 000:598.142 JLINK_HasError()
T08AC 000:599.603 JLINK_IsHalted()
T08AC 000:600.143 - 0.553ms returns FALSE
T08AC 000:600.163 JLINK_HasError()
T08AC 000:601.536 JLINK_IsHalted()
T08AC 000:602.072 - 0.553ms returns FALSE
T08AC 000:602.100 JLINK_HasError()
T08AC 000:603.658 JLINK_IsHalted()
T08AC 000:604.148 - 0.497ms returns FALSE
T08AC 000:604.162 JLINK_HasError()
T08AC 000:605.540 JLINK_IsHalted()
T08AC 000:606.058 - 0.533ms returns FALSE
T08AC 000:606.082 JLINK_HasError()
T08AC 000:607.538 JLINK_IsHalted()
T08AC 000:608.059 - 0.537ms returns FALSE
T08AC 000:608.084 JLINK_HasError()
T08AC 000:609.655 JLINK_IsHalted()
T08AC 000:610.191 - 0.549ms returns FALSE
T08AC 000:610.212 JLINK_HasError()
T08AC 000:611.659 JLINK_IsHalted()
T08AC 000:615.350   CPU_ReadMem(2 bytes @ 0x20000000)
T08AC 000:615.821 - 4.170ms returns TRUE
T08AC 000:615.840 JLINK_ReadReg(R15 (PC))
T08AC 000:615.851 - 0.014ms returns 0x20000000
T08AC 000:615.863 JLINK_ClrBPEx(BPHandle = 0x00000007)
T08AC 000:615.871 - 0.011ms returns 0x00
T08AC 000:615.883 JLINK_ReadReg(R0)
T08AC 000:615.891 - 0.011ms returns 0x00000000
T08AC 000:616.637 JLINK_WriteMem(0x20000164, 0x29C Bytes, ...)
T08AC 000:616.657   Data:  01 21 00 91 3F 49 0A 68 42 F0 10 02 0A 60 0A 68 ...
T08AC 000:616.681   CPU_WriteMem(668 bytes @ 0x20000164)
T08AC 000:620.937 - 4.316ms returns 0x29C
T08AC 000:620.963 JLINK_WriteMem(0x20000400, 0x164 Bytes, ...)
T08AC 000:620.973   Data:  10 B1 00 2D F7 D1 4E E0 5D B3 01 21 40 46 01 F0 ...
T08AC 000:620.993   CPU_WriteMem(356 bytes @ 0x20000400)
T08AC 000:623.799 - 2.850ms returns 0x164
T08AC 000:623.823 JLINK_HasError()
T08AC 000:623.834 JLINK_WriteReg(R0, 0x08000C00)
T08AC 000:623.844 - 0.019ms returns 0
T08AC 000:623.860 JLINK_WriteReg(R1, 0x00000400)
T08AC 000:623.869 - 0.012ms returns 0
T08AC 000:623.877 JLINK_WriteReg(R2, 0x20000164)
T08AC 000:623.885 - 0.011ms returns 0
T08AC 000:623.893 JLINK_WriteReg(R3, 0x00000000)
T08AC 000:623.901 - 0.011ms returns 0
T08AC 000:623.909 JLINK_WriteReg(R4, 0x00000000)
T08AC 000:623.916 - 0.011ms returns 0
T08AC 000:623.924 JLINK_WriteReg(R5, 0x00000000)
T08AC 000:623.932 - 0.011ms returns 0
T08AC 000:623.940 JLINK_WriteReg(R6, 0x00000000)
T08AC 000:623.947 - 0.010ms returns 0
T08AC 000:623.955 JLINK_WriteReg(R7, 0x00000000)
T08AC 000:623.962 - 0.011ms returns 0
T08AC 000:623.970 JLINK_WriteReg(R8, 0x00000000)
T08AC 000:623.978 - 0.011ms returns 0
T08AC 000:623.986 JLINK_WriteReg(R9, 0x20000160)
T08AC 000:623.993 - 0.011ms returns 0
T08AC 000:624.001 JLINK_WriteReg(R10, 0x00000000)
T08AC 000:624.009 - 0.011ms returns 0
T08AC 000:624.017 JLINK_WriteReg(R11, 0x00000000)
T08AC 000:624.024 - 0.011ms returns 0
T08AC 000:624.032 JLINK_WriteReg(R12, 0x00000000)
T08AC 000:624.040 - 0.011ms returns 0
T08AC 000:624.048 JLINK_WriteReg(R13 (SP), 0x20000800)
T08AC 000:624.056 - 0.011ms returns 0
T08AC 000:624.064 JLINK_WriteReg(R14, 0x20000001)
T08AC 000:624.072 - 0.011ms returns 0
T08AC 000:624.084 JLINK_WriteReg(R15 (PC), 0x200000F4)
T08AC 000:624.092 - 0.011ms returns 0
T08AC 000:624.100 JLINK_WriteReg(XPSR, 0x01000000)
T08AC 000:624.107 - 0.011ms returns 0
T08AC 000:624.115 JLINK_WriteReg(MSP, 0x20000800)
T08AC 000:624.123 - 0.011ms returns 0
T08AC 000:624.131 JLINK_WriteReg(PSP, 0x20000800)
T08AC 000:624.138 - 0.011ms returns 0
T08AC 000:624.146 JLINK_WriteReg(CFBP, 0x00000000)
T08AC 000:624.154 - 0.011ms returns 0
T08AC 000:624.162 JLINK_SetBPEx(Addr = 0x20000000, Type = 0xFFFFFFF2)
T08AC 000:624.170 - 0.012ms returns 0x00000008
T08AC 000:624.179 JLINK_Go()
T08AC 000:624.195   CPU_ReadMem(4 bytes @ 0xE0001000)
T08AC 000:628.430 - 4.263ms
T08AC 000:628.449 JLINK_IsHalted()
T08AC 000:629.244 - 0.809ms returns FALSE
T08AC 000:629.267 JLINK_HasError()
T08AC 000:632.367 JLINK_IsHalted()
T08AC 000:632.882 - 0.522ms returns FALSE
T08AC 000:632.896 JLINK_HasError()
T08AC 000:634.102 JLINK_IsHalted()
T08AC 000:634.562 - 0.467ms returns FALSE
T08AC 000:634.576 JLINK_HasError()
T08AC 000:636.387 JLINK_IsHalted()
T08AC 000:636.944 - 0.563ms returns FALSE
T08AC 000:636.957 JLINK_HasError()
T08AC 000:638.385 JLINK_IsHalted()
T08AC 000:638.814 - 0.437ms returns FALSE
T08AC 000:638.831 JLINK_HasError()
T08AC 000:640.116 JLINK_IsHalted()
T08AC 000:640.641 - 0.532ms returns FALSE
T08AC 000:640.654 JLINK_HasError()
T08AC 000:642.116 JLINK_IsHalted()
T08AC 000:642.637 - 0.528ms returns FALSE
T08AC 000:642.651 JLINK_HasError()
T08AC 000:644.362 JLINK_IsHalted()
T08AC 000:644.888 - 0.531ms returns FALSE
T08AC 000:644.900 JLINK_HasError()
T08AC 000:646.096 JLINK_IsHalted()
T08AC 000:646.596 - 0.507ms returns FALSE
T08AC 000:646.610 JLINK_HasError()
T08AC 000:648.120 JLINK_IsHalted()
T08AC 000:648.895 - 0.789ms returns FALSE
T08AC 000:648.917 JLINK_HasError()
T08AC 000:650.090 JLINK_IsHalted()
T08AC 000:650.569 - 0.486ms returns FALSE
T08AC 000:650.583 JLINK_HasError()
T08AC 000:652.379 JLINK_IsHalted()
T08AC 000:652.965 - 0.592ms returns FALSE
T08AC 000:652.978 JLINK_HasError()
T08AC 000:654.383 JLINK_IsHalted()
T08AC 000:654.946 - 0.570ms returns FALSE
T08AC 000:654.959 JLINK_HasError()
T08AC 000:656.388 JLINK_IsHalted()
T08AC 000:656.933 - 0.552ms returns FALSE
T08AC 000:656.946 JLINK_HasError()
T08AC 000:658.118 JLINK_IsHalted()
T08AC 000:658.630 - 0.518ms returns FALSE
T08AC 000:658.643 JLINK_HasError()
T08AC 000:660.121 JLINK_IsHalted()
T08AC 000:663.844   CPU_ReadMem(2 bytes @ 0x20000000)
T08AC 000:664.390 - 4.277ms returns TRUE
T08AC 000:664.404 JLINK_ReadReg(R15 (PC))
T08AC 000:664.415 - 0.014ms returns 0x20000000
T08AC 000:664.423 JLINK_ClrBPEx(BPHandle = 0x00000008)
T08AC 000:664.431 - 0.011ms returns 0x00
T08AC 000:664.439 JLINK_ReadReg(R0)
T08AC 000:664.447 - 0.011ms returns 0x00000000
T08AC 000:665.019 JLINK_WriteMem(0x20000164, 0x29C Bytes, ...)
T08AC 000:665.040   Data:  C2 46 40 46 01 F0 04 FE C8 46 4D 46 B9 46 57 46 ...
T08AC 000:665.058   CPU_WriteMem(668 bytes @ 0x20000164)
T08AC 000:669.409 - 4.419ms returns 0x29C
T08AC 000:669.454 JLINK_WriteMem(0x20000400, 0x164 Bytes, ...)
T08AC 000:669.464   Data:  03 E0 C1 F3 01 31 01 29 F6 D0 B6 48 00 68 00 69 ...
T08AC 000:669.488   CPU_WriteMem(356 bytes @ 0x20000400)
T08AC 000:672.210 - 2.769ms returns 0x164
T08AC 000:672.236 JLINK_HasError()
T08AC 000:672.248 JLINK_WriteReg(R0, 0x08001000)
T08AC 000:672.260 - 0.016ms returns 0
T08AC 000:672.270 JLINK_WriteReg(R1, 0x00000400)
T08AC 000:672.279 - 0.013ms returns 0
T08AC 000:672.288 JLINK_WriteReg(R2, 0x20000164)
T08AC 000:672.297 - 0.012ms returns 0
T08AC 000:672.306 JLINK_WriteReg(R3, 0x00000000)
T08AC 000:672.315 - 0.012ms returns 0
T08AC 000:672.324 JLINK_WriteReg(R4, 0x00000000)
T08AC 000:672.333 - 0.012ms returns 0
T08AC 000:672.341 JLINK_WriteReg(R5, 0x00000000)
T08AC 000:672.348 - 0.010ms returns 0
T08AC 000:672.356 JLINK_WriteReg(R6, 0x00000000)
T08AC 000:672.364 - 0.010ms returns 0
T08AC 000:672.372 JLINK_WriteReg(R7, 0x00000000)
T08AC 000:672.379 - 0.010ms returns 0
T08AC 000:672.388 JLINK_WriteReg(R8, 0x00000000)
T08AC 000:672.395 - 0.011ms returns 0
T08AC 000:672.405 JLINK_WriteReg(R9, 0x20000160)
T08AC 000:672.413 - 0.011ms returns 0
T08AC 000:672.423 JLINK_WriteReg(R10, 0x00000000)
T08AC 000:672.431 - 0.011ms returns 0
T08AC 000:672.441 JLINK_WriteReg(R11, 0x00000000)
T08AC 000:672.449 - 0.011ms returns 0
T08AC 000:672.459 JLINK_WriteReg(R12, 0x00000000)
T08AC 000:672.466 - 0.011ms returns 0
T08AC 000:672.476 JLINK_WriteReg(R13 (SP), 0x20000800)
T08AC 000:672.485 - 0.011ms returns 0
T08AC 000:672.494 JLINK_WriteReg(R14, 0x20000001)
T08AC 000:672.502 - 0.011ms returns 0
T08AC 000:672.512 JLINK_WriteReg(R15 (PC), 0x200000F4)
T08AC 000:672.520 - 0.011ms returns 0
T08AC 000:672.530 JLINK_WriteReg(XPSR, 0x01000000)
T08AC 000:672.538 - 0.011ms returns 0
T08AC 000:672.547 JLINK_WriteReg(MSP, 0x20000800)
T08AC 000:672.555 - 0.011ms returns 0
T08AC 000:672.565 JLINK_WriteReg(PSP, 0x20000800)
T08AC 000:672.573 - 0.011ms returns 0
T08AC 000:672.582 JLINK_WriteReg(CFBP, 0x00000000)
T08AC 000:672.590 - 0.011ms returns 0
T08AC 000:672.600 JLINK_SetBPEx(Addr = 0x20000000, Type = 0xFFFFFFF2)
T08AC 000:672.609 - 0.012ms returns 0x00000009
T08AC 000:672.619 JLINK_Go()
T08AC 000:672.635   CPU_ReadMem(4 bytes @ 0xE0001000)
T08AC 000:676.906 - 4.300ms
T08AC 000:676.933 JLINK_IsHalted()
T08AC 000:677.675 - 0.752ms returns FALSE
T08AC 000:677.695 JLINK_HasError()
T08AC 000:679.145 JLINK_IsHalted()
T08AC 000:679.679 - 0.540ms returns FALSE
T08AC 000:679.692 JLINK_HasError()
T08AC 000:681.154 JLINK_IsHalted()
T08AC 000:681.931 - 0.784ms returns FALSE
T08AC 000:681.945 JLINK_HasError()
T08AC 000:683.604 JLINK_IsHalted()
T08AC 000:684.102 - 0.511ms returns FALSE
T08AC 000:684.123 JLINK_HasError()
T08AC 000:685.880 JLINK_IsHalted()
T08AC 000:686.628 - 0.755ms returns FALSE
T08AC 000:686.641 JLINK_HasError()
T08AC 000:687.882 JLINK_IsHalted()
T08AC 000:688.345 - 0.470ms returns FALSE
T08AC 000:688.359 JLINK_HasError()
T08AC 000:690.010 JLINK_IsHalted()
T08AC 000:690.570 - 0.566ms returns FALSE
T08AC 000:690.583 JLINK_HasError()
T08AC 000:691.882 JLINK_IsHalted()
T08AC 000:692.432 - 0.556ms returns FALSE
T08AC 000:692.445 JLINK_HasError()
T08AC 000:693.859 JLINK_IsHalted()
T08AC 000:694.409 - 0.556ms returns FALSE
T08AC 000:694.422 JLINK_HasError()
T08AC 000:696.882 JLINK_IsHalted()
T08AC 000:697.625 - 0.757ms returns FALSE
T08AC 000:697.647 JLINK_HasError()
T08AC 000:698.881 JLINK_IsHalted()
T08AC 000:699.618 - 0.751ms returns FALSE
T08AC 000:699.641 JLINK_HasError()
T08AC 000:700.849 JLINK_IsHalted()
T08AC 000:701.301 - 0.459ms returns FALSE
T08AC 000:701.314 JLINK_HasError()
T08AC 000:702.881 JLINK_IsHalted()
T08AC 000:703.386 - 0.511ms returns FALSE
T08AC 000:703.403 JLINK_HasError()
T08AC 000:705.004 JLINK_IsHalted()
T08AC 000:705.570 - 0.575ms returns FALSE
T08AC 000:705.586 JLINK_HasError()
T08AC 000:706.878 JLINK_IsHalted()
T08AC 000:707.385 - 0.514ms returns FALSE
T08AC 000:707.398 JLINK_HasError()
T08AC 000:709.017 JLINK_IsHalted()
T08AC 000:712.680   CPU_ReadMem(2 bytes @ 0x20000000)
T08AC 000:713.219 - 4.209ms returns TRUE
T08AC 000:713.233 JLINK_ReadReg(R15 (PC))
T08AC 000:713.243 - 0.014ms returns 0x20000000
T08AC 000:713.251 JLINK_ClrBPEx(BPHandle = 0x00000009)
T08AC 000:713.259 - 0.011ms returns 0x00
T08AC 000:713.268 JLINK_ReadReg(R0)
T08AC 000:713.275 - 0.011ms returns 0x00000000
T08AC 000:713.785 JLINK_WriteMem(0x20000164, 0x29C Bytes, ...)
T08AC 000:713.801   Data:  00 1C 5F 48 00 68 80 69 80 47 00 20 70 BD 5B 48 ...
T08AC 000:713.818   CPU_WriteMem(668 bytes @ 0x20000164)
T08AC 000:718.153 - 4.398ms returns 0x29C
T08AC 000:718.195 JLINK_WriteMem(0x20000400, 0x164 Bytes, ...)
T08AC 000:718.206   Data:  42 88 9A B9 02 79 8A B9 C2 88 01 2A 0E D1 8A 69 ...
T08AC 000:718.232   CPU_WriteMem(356 bytes @ 0x20000400)
T08AC 000:721.081 - 2.902ms returns 0x164
T08AC 000:721.107 JLINK_HasError()
T08AC 000:721.118 JLINK_WriteReg(R0, 0x08001400)
T08AC 000:721.130 - 0.016ms returns 0
T08AC 000:721.140 JLINK_WriteReg(R1, 0x00000400)
T08AC 000:721.149 - 0.012ms returns 0
T08AC 000:721.158 JLINK_WriteReg(R2, 0x20000164)
T08AC 000:721.166 - 0.012ms returns 0
T08AC 000:721.175 JLINK_WriteReg(R3, 0x00000000)
T08AC 000:721.184 - 0.012ms returns 0
T08AC 000:721.193 JLINK_WriteReg(R4, 0x00000000)
T08AC 000:721.202 - 0.012ms returns 0
T08AC 000:721.210 JLINK_WriteReg(R5, 0x00000000)
T08AC 000:721.217 - 0.010ms returns 0
T08AC 000:721.225 JLINK_WriteReg(R6, 0x00000000)
T08AC 000:721.232 - 0.010ms returns 0
T08AC 000:721.240 JLINK_WriteReg(R7, 0x00000000)
T08AC 000:721.247 - 0.010ms returns 0
T08AC 000:721.255 JLINK_WriteReg(R8, 0x00000000)
T08AC 000:721.263 - 0.011ms returns 0
T08AC 000:721.271 JLINK_WriteReg(R9, 0x20000160)
T08AC 000:721.278 - 0.010ms returns 0
T08AC 000:721.286 JLINK_WriteReg(R10, 0x00000000)
T08AC 000:721.293 - 0.010ms returns 0
T08AC 000:721.301 JLINK_WriteReg(R11, 0x00000000)
T08AC 000:721.309 - 0.011ms returns 0
T08AC 000:721.317 JLINK_WriteReg(R12, 0x00000000)
T08AC 000:721.324 - 0.010ms returns 0
T08AC 000:721.332 JLINK_WriteReg(R13 (SP), 0x20000800)
T08AC 000:721.340 - 0.012ms returns 0
T08AC 000:721.348 JLINK_WriteReg(R14, 0x20000001)
T08AC 000:721.356 - 0.011ms returns 0
T08AC 000:721.364 JLINK_WriteReg(R15 (PC), 0x200000F4)
T08AC 000:721.372 - 0.011ms returns 0
T08AC 000:721.380 JLINK_WriteReg(XPSR, 0x01000000)
T08AC 000:721.387 - 0.011ms returns 0
T08AC 000:721.395 JLINK_WriteReg(MSP, 0x20000800)
T08AC 000:721.403 - 0.011ms returns 0
T08AC 000:721.410 JLINK_WriteReg(PSP, 0x20000800)
T08AC 000:721.418 - 0.010ms returns 0
T08AC 000:721.426 JLINK_WriteReg(CFBP, 0x00000000)
T08AC 000:721.434 - 0.011ms returns 0
T08AC 000:721.442 JLINK_SetBPEx(Addr = 0x20000000, Type = 0xFFFFFFF2)
T08AC 000:721.450 - 0.012ms returns 0x0000000A
T08AC 000:721.458 JLINK_Go()
T08AC 000:721.474   CPU_ReadMem(4 bytes @ 0xE0001000)
T08AC 000:725.466 - 4.019ms
T08AC 000:725.484 JLINK_IsHalted()
T08AC 000:726.315 - 0.844ms returns FALSE
T08AC 000:726.337 JLINK_HasError()
T08AC 000:729.134 JLINK_IsHalted()
T08AC 000:729.686 - 0.559ms returns FALSE
T08AC 000:729.699 JLINK_HasError()
T08AC 000:731.132 JLINK_IsHalted()
T08AC 000:731.764 - 0.639ms returns FALSE
T08AC 000:731.778 JLINK_HasError()
T08AC 000:733.168 JLINK_IsHalted()
T08AC 000:733.677 - 0.516ms returns FALSE
T08AC 000:733.690 JLINK_HasError()
T08AC 000:735.708 JLINK_IsHalted()
T08AC 000:736.407 - 0.706ms returns FALSE
T08AC 000:736.421 JLINK_HasError()
T08AC 000:738.172 JLINK_IsHalted()
T08AC 000:738.832 - 0.668ms returns FALSE
T08AC 000:738.846 JLINK_HasError()
T08AC 000:740.151 JLINK_IsHalted()
T08AC 000:740.632 - 0.488ms returns FALSE
T08AC 000:740.646 JLINK_HasError()
T08AC 000:742.173 JLINK_IsHalted()
T08AC 000:742.716 - 0.550ms returns FALSE
T08AC 000:742.730 JLINK_HasError()
T08AC 000:744.173 JLINK_IsHalted()
T08AC 000:744.698 - 0.532ms returns FALSE
T08AC 000:744.712 JLINK_HasError()
T08AC 000:746.171 JLINK_IsHalted()
T08AC 000:746.794 - 0.630ms returns FALSE
T08AC 000:746.808 JLINK_HasError()
T08AC 000:748.170 JLINK_IsHalted()
T08AC 000:748.797 - 0.634ms returns FALSE
T08AC 000:748.811 JLINK_HasError()
T08AC 000:750.152 JLINK_IsHalted()
T08AC 000:750.671 - 0.526ms returns FALSE
T08AC 000:750.685 JLINK_HasError()
T08AC 000:752.173 JLINK_IsHalted()
T08AC 000:752.672 - 0.506ms returns FALSE
T08AC 000:752.686 JLINK_HasError()
T08AC 000:754.173 JLINK_IsHalted()
T08AC 000:754.678 - 0.512ms returns FALSE
T08AC 000:754.692 JLINK_HasError()
T08AC 000:756.185 JLINK_IsHalted()
T08AC 000:759.732   CPU_ReadMem(2 bytes @ 0x20000000)
T08AC 000:760.426 - 4.248ms returns TRUE
T08AC 000:760.440 JLINK_ReadReg(R15 (PC))
T08AC 000:760.450 - 0.013ms returns 0x20000000
T08AC 000:760.459 JLINK_ClrBPEx(BPHandle = 0x0000000A)
T08AC 000:760.467 - 0.011ms returns 0x00
T08AC 000:760.475 JLINK_ReadReg(R0)
T08AC 000:760.483 - 0.011ms returns 0x00000000
T08AC 000:761.006 JLINK_WriteMem(0x20000164, 0x29C Bytes, ...)
T08AC 000:761.022   Data:  99 42 F1 D3 48 49 40 F0 80 00 09 1F 08 60 F0 BD ...
T08AC 000:761.039   CPU_WriteMem(668 bytes @ 0x20000164)
T08AC 000:765.355 - 4.365ms returns 0x29C
T08AC 000:765.380 JLINK_WriteMem(0x20000400, 0x164 Bytes, ...)
T08AC 000:765.391   Data:  08 00 28 60 FF F7 DD FE 28 68 21 88 30 40 C9 04 ...
T08AC 000:765.413   CPU_WriteMem(356 bytes @ 0x20000400)
T08AC 000:768.184 - 2.818ms returns 0x164
T08AC 000:768.208 JLINK_HasError()
T08AC 000:768.219 JLINK_WriteReg(R0, 0x08001800)
T08AC 000:768.232 - 0.017ms returns 0
T08AC 000:768.243 JLINK_WriteReg(R1, 0x00000400)
T08AC 000:768.253 - 0.013ms returns 0
T08AC 000:768.262 JLINK_WriteReg(R2, 0x20000164)
T08AC 000:768.272 - 0.013ms returns 0
T08AC 000:768.282 JLINK_WriteReg(R3, 0x00000000)
